T29AC 8116:946 SEGGER J-Link V6.46 Log File (0000ms, 31699ms total)
T29AC 8116:946 DLL Compiled: May 23 2019 17:49:56 (0000ms, 31699ms total)
T29AC 8116:946 Logging started @ 2020-04-01 16:45 (0000ms, 31699ms total)
T29AC 8116:946 JLINK_SetWarnOutHandler(...) (0000ms, 31699ms total)
T29AC 8116:946 JLINK_OpenEx(...)
Firmware: J-Link V9 compiled May 17 2019 09:50:41
Hardware: V9.20
Feature(s): RDI, GDB, FlashDL, FlashBP, JFlash
TELNET listener socket opened on port 19021WEBSRV 
Starting webserver (0050ms, 31749ms total)
T29AC 8116:946 WEBSRV Webserver running on local port 19080 (0051ms, 31750ms total)
T29AC 8116:946   returns O.K. (0051ms, 31750ms total)
T29AC 8116:997 JLINK_GetEmuCaps()  returns 0xB9FF7BBF (0000ms, 31750ms total)
T29AC 8116:998 JLINK_TIF_GetAvailable(...) (0000ms, 31750ms total)
T29AC 8116:999 JLINK_SetErrorOutHandler(...) (0000ms, 31750ms total)
T29AC 8116:999 JLINK_ExecCommand("ProjectFile = "C:\Users\gxg05\Desktop\base_rtos10.2-6 -²Ã¼ô - FC0\MDK\JLinkSettings.ini"", ...).   returns 0x00 (0003ms, 31753ms total)
T29AC 8117:008 JLINK_ExecCommand("Device = LPC54608J512BD208:M4", ...). Device "LPC54608J512" selected.  returns 0x00 (0022ms, 31775ms total)
T29AC 8117:030 JLINK_ExecCommand("DisableConnectionTimeout", ...).   returns 0x01 (0000ms, 31775ms total)
T29AC 8117:030 JLINK_GetHardwareVersion()  returns 0x16760 (0000ms, 31775ms total)
T29AC 8117:030 JLINK_GetDLLVersion()  returns 64600 (0000ms, 31775ms total)
T29AC 8117:030 JLINK_GetFirmwareString(...) (0000ms, 31775ms total)
T29AC 8117:041 JLINK_GetDLLVersion()  returns 64600 (0000ms, 31775ms total)
T29AC 8117:041 JLINK_GetCompileDateTime() (0000ms, 31775ms total)
T29AC 8117:043 JLINK_GetFirmwareString(...) (0000ms, 31775ms total)
T29AC 8117:047 JLINK_GetHardwareVersion()  returns 0x16760 (0000ms, 31775ms total)
T29AC 8117:055 JLINK_TIF_Select(JLINKARM_TIF_SWD)  returns 0x00 (0002ms, 31777ms total)
T29AC 8117:057 JLINK_SetSpeed(5000) (0002ms, 31779ms total)
T29AC 8117:059 JLINK_GetId() >0x10B TIF>Found SW-DP with ID 0x2BA01477 >0x0D TIF> >0x28 TIF> >0x0D TIF> >0x28 TIF> >0x10B TIF>Found SW-DP with ID 0x2BA01477 >0x0D TIF> >0x28 TIF> >0x0D TIF> >0x28 TIF> >0x0D TIF> >0x28 TIF> >0x0D TIF> >0x28 TIF> >0x0D TIF> >0x21 TIF> >0x0D TIF> >0x28 TIF>Scanning AP map to find all available APs >0x0D TIF> >0x28 TIF> >0x0D TIF> >0x21 TIF> >0x0D TIF> >0x21 TIF> >0x0D TIF> >0x28 TIF> >0x0D TIF> >0x21 TIF> >0x0D TIF> >0x21 TIF>
AP[1]: Stopped AP scan as end of AP map has been reachedAP[0]: AHB-AP (IDR: 0x24770011)Iterating through AP map to find AHB-AP to use >0x42 TIF> >0x28 TIF> >0x0D TIF> >0x28 TIF> >0x0D TIF> >0x21 TIF> >0x0D TIF> >0x21 TIF> >0x42 TIF> >0x28 TIF> >0x0D TIF> >0x28 TIF> >0x0D TIF> >0x28 TIF> >0x0D TIF> >0x21 TIF> >0x0D TIF> >0x21 TIF>AP[0]: Core foundAP[0]: AHB-AP ROM base: 0xE00FF000 >0x0D TIF> >0x28 TIF> >0x0D TIF> >0x28 TIF> >0x0D TIF> >0x28 TIF> >0x0D TIF> >0x21 TIF> >0x0D TIF> >0x21 TIF>
CPUID register: 0x410FC241. Implementer code: 0x41 (ARM)Found Cortex-M4 r0p1, Little endian. -- Max. mem block: 0x00010D70 -- CPU_ReadMem(4 bytes @ 0xE000EDF0) -- CPU_WriteMem(4 bytes @ 0xE000EDF0) -- CPU_ReadMem(4 bytes @ 0xE0002000)FPUnit: 6 code (BP) slots and 2 literal slots -- CPU_ReadMem(4 bytes @ 0xE000EDFC) -- CPU_WriteMem(4 bytes @ 0xE000EDFC) -- CPU_ReadMem(4 bytes @ 0xE0001000) -- CPU_WriteMem(4 bytes @ 0xE0001000) -- CPU_ReadMem(4 bytes @ 0xE000ED88) -- CPU_WriteMem(4 bytes @ 0xE000ED88)
 -- CPU_ReadMem(4 bytes @ 0xE000ED88) -- CPU_WriteMem(4 bytes @ 0xE000ED88)CoreSight components:ROMTbl[0] @ E00FF000 -- CPU_ReadMem(16 bytes @ 0xE00FF000) -- CPU_ReadMem(16 bytes @ 0xE000EFF0) -- CPU_ReadMem(16 bytes @ 0xE000EFE0)ROMTbl[0][0]: E000E000, CID: B105E00D, PID: 000BB00C SCS-M7 -- CPU_ReadMem(16 bytes @ 0xE0001FF0) -- CPU_ReadMem(16 bytes @ 0xE0001FE0)ROMTbl[0][1]: E0001000, CID: B105E00D, PID: 003BB002 DWT -- CPU_ReadMem(16 bytes @ 0xE0002FF0) -- CPU_ReadMem(16 bytes @ 0xE0002FE0)
ROMTbl[0][2]: E0002000, CID: B105E00D, PID: 002BB003 FPB -- CPU_ReadMem(16 bytes @ 0xE0000FF0) -- CPU_ReadMem(16 bytes @ 0xE0000FE0)ROMTbl[0][3]: E0000000, CID: B105E00D, PID: 003BB001 ITM -- CPU_ReadMem(16 bytes @ 0xE00FF010) -- CPU_ReadMem(16 bytes @ 0xE0040FF0) -- CPU_ReadMem(16 bytes @ 0xE0040FE0)ROMTbl[0][4]: E0040000, CID: B105900D, PID: 000BB9A1 TPIU -- CPU_ReadMem(16 bytes @ 0xE0041FF0) -- CPU_ReadMem(16 bytes @ 0xE0041FE0)ROMTbl[0][5]: E0041000, CID: B105900D, PID: 000BB925 ETM >0x0D TIF>
 >0x21 TIF>  returns 0x2BA01477 (0280ms, 32059ms total)
T29AC 8117:339 JLINK_GetDLLVersion()  returns 64600 (0001ms, 32060ms total)
T29AC 8117:340 JLINK_CORE_GetFound()  returns 0xE0000FF (0000ms, 32060ms total)
T29AC 8117:340 JLINK_GetDebugInfo(0x100 = JLINKARM_ROM_TABLE_ADDR_INDEX) -- Value=0xE00FF000  returns 0x00 (0000ms, 32060ms total)
T29AC 8117:343 JLINK_GetDebugInfo(0x100 = JLINKARM_ROM_TABLE_ADDR_INDEX) -- Value=0xE00FF000  returns 0x00 (0000ms, 32060ms total)
T29AC 8117:343 JLINK_GetDebugInfo(0x101 = JLINKARM_DEBUG_INFO_ETM_ADDR_INDEX) -- Value=0xE0041000  returns 0x00 (0000ms, 32060ms total)
T29AC 8117:343 JLINK_ReadMemEx(0xE0041FD0, 0x0020 Bytes, ..., Flags = 0x02000004) -- CPU_ReadMem(32 bytes @ 0xE0041FD0) - Data: 04 00 00 00 00 00 00 00 00 00 00 00 00 00 00 00 ...  returns 0x20 (0002ms, 32062ms total)
T29AC 8117:345 JLINK_GetDebugInfo(0x102 = JLINKARM_DEBUG_INFO_MTB_ADDR_INDEX) -- Value=0x00000000  returns 0x00 (0000ms, 32062ms total)
T29AC 8117:345 JLINK_GetDebugInfo(0x103 = JLINKARM_DEBUG_INFO_TPIU_ADDR_INDEX) -- Value=0xE0040000  returns 0x00 (0000ms, 32062ms total)
T29AC 8117:345 JLINK_GetDebugInfo(0x104 = JLINKARM_DEBUG_INFO_ITM_ADDR_INDEX) -- Value=0xE0000000  returns 0x00 (0000ms, 32062ms total)
T29AC 8117:345 JLINK_GetDebugInfo(0x105 = JLINKARM_DEBUG_INFO_DWT_ADDR_INDEX) -- Value=0xE0001000  returns 0x00 (0000ms, 32062ms total)
T29AC 8117:345 JLINK_GetDebugInfo(0x106 = JLINKARM_DEBUG_INFO_FPB_ADDR_INDEX) -- Value=0xE0002000  returns 0x00 (0000ms, 32062ms total)
T29AC 8117:345 JLINK_GetDebugInfo(0x107 = JLINKARM_DEBUG_INFO_NVIC_ADDR_INDEX) -- Value=0xE000E000  returns 0x00 (0000ms, 32062ms total)
T29AC 8117:345 JLINK_GetDebugInfo(0x10C = JLINKARM_DEBUG_INFO_DBG_ADDR_INDEX) -- Value=0xE000EDF0  returns 0x00 (0000ms, 32062ms total)
T29AC 8117:345 JLINK_GetDebugInfo(0x01 = Unknown) -- Value=0x00000001  returns 0x00 (0000ms, 32062ms total)
T29AC 8117:345 JLINK_ReadMemU32(0xE000ED00, 0x0001 Items, ...) -- CPU_ReadMem(4 bytes @ 0xE000ED00) - Data: 41 C2 0F 41  returns 1 (0001ms, 32063ms total)
T29AC 8117:346 JLINK_GetDebugInfo(0x10F = JLINKARM_DEBUG_INFO_HAS_CORTEX_M_SECURITY_EXT_INDEX) -- Value=0x00000000  returns 0x00 (0000ms, 32063ms total)
T29AC 8117:346 JLINK_SetResetType(JLINKARM_CM3_RESET_TYPE_NORMAL)  returns JLINKARM_CM3_RESET_TYPE_HALT_AFTER_BTL (0000ms, 32063ms total)
T29AC 8117:346 JLINK_Reset() -- CPU is running -- CPU_WriteMem(4 bytes @ 0xE000EDF0) -- CPU is running -- CPU_WriteMem(4 bytes @ 0xE000EDFC)Reset: Halt core after reset via DEMCR.VC_CORERESET. >0x35 TIF>Reset: Reset device via AIRCR.SYSRESETREQ. -- CPU is running -- CPU_WriteMem(4 bytes @ 0xE000ED0C) >0x0D TIF> >0x28 TIF> -- CPU_ReadMem(4 bytes @ 0xE000EDF0) -- CPU_ReadMem(4 bytes @ 0xE000EDF0) -- CPU is running -- CPU_WriteMem(4 bytes @ 0xE000EDF0) -- CPU is running -- CPU_WriteMem(4 bytes @ 0xE000EDFC)
 -- CPU_ReadMem(4 bytes @ 0xE000EDF0) -- CPU_WriteMem(4 bytes @ 0xE000EDFC) -- CPU_WriteMem(4 bytes @ 0xE000EDFC) -- CPU_WriteMem(4 bytes @ 0xE000EDFC) -- CPU_WriteMem(4 bytes @ 0xE000EDFC) -- CPU_WriteMem(4 bytes @ 0xE000EDFC) -- CPU_WriteMem(4 bytes @ 0xE0001050) -- CPU_WriteMem(4 bytes @ 0xE0001054) -- CPU_WriteMem(4 bytes @ 0xE0001058) -- CPU_ReadMem(4 bytes @ 0xE0001000) -- CPU_WriteMem(4 bytes @ 0xE000EDFC) -- CPU_WriteMem(4 bytes @ 0xE0001058) -- CPU_ReadMem(4 bytes @ 0x00000004)
 -- CPU_ReadMem(4 bytes @ 0xE0002000) -- CPU_ReadMem(4 bytes @ 0xE0002008) -- CPU_ReadMem(4 bytes @ 0xE000200C) -- CPU_ReadMem(4 bytes @ 0xE0002010) -- CPU_ReadMem(4 bytes @ 0xE0002014) -- CPU_ReadMem(4 bytes @ 0xE0002018) -- CPU_ReadMem(4 bytes @ 0xE000201C) -- CPU_WriteMem(4 bytes @ 0xE0002000) -- CPU_WriteMem(4 bytes @ 0xE0002008) -- CPU_WriteMem(4 bytes @ 0xE000200C) -- CPU_WriteMem(4 bytes @ 0xE0002010) -- CPU_WriteMem(4 bytes @ 0xE0002014) -- CPU_WriteMem(4 bytes @ 0xE0002018)
 -- CPU_WriteMem(4 bytes @ 0xE000201C) -- CPU_ReadMem(4 bytes @ 0xE0001000) -- CPU_WriteMem(4 bytes @ 0xE0002000) -- CPU_WriteMem(4 bytes @ 0xE0002008) -- CPU_WriteMem(4 bytes @ 0xE000200C) -- CPU_WriteMem(4 bytes @ 0xE0002010) -- CPU_WriteMem(4 bytes @ 0xE0002014) -- CPU_WriteMem(4 bytes @ 0xE0002018) -- CPU_WriteMem(4 bytes @ 0xE000201C) -- CPU_WriteMem(4 bytes @ 0xE0002000) -- CPU_ReadMem(4 bytes @ 0xE000EDFC) -- CPU_ReadMem(4 bytes @ 0xE0001000) (0335ms, 32398ms total)
T29AC 8117:681 JLINK_Halt()  returns 0x00 (0000ms, 32398ms total)
T29AC 8117:681 JLINK_ReadMemU32(0xE000EDF0, 0x0001 Items, ...) -- CPU_ReadMem(4 bytes @ 0xE000EDF0) - Data: 03 00 03 00  returns 1 (0002ms, 32400ms total)
T29AC 8117:683 JLINK_WriteU32(0xE000EDF0, 0xA05F0003) -- CPU_WriteMem(4 bytes @ 0xE000EDF0)  returns 0 (0001ms, 32401ms total)
T29AC 8117:684 JLINK_WriteU32(0xE000EDFC, 0x01000000) -- CPU_WriteMem(4 bytes @ 0xE000EDFC)  returns 0 (0002ms, 32403ms total)
T29AC 8117:742 JLINK_GetHWStatus(...)  returns 0x00 (0001ms, 32404ms total)
T29AC 8117:761 JLINK_GetNumBPUnits(Type = 0xFFFFFF00)  returns 0x06 (0000ms, 32404ms total)
T29AC 8117:761 JLINK_GetNumBPUnits(Type = 0xF0)  returns 0x2000 (0000ms, 32404ms total)
T29AC 8117:761 JLINK_GetNumWPUnits()  returns 0x04 (0000ms, 32404ms total)
T29AC 8117:774 JLINK_GetSpeed()  returns 0xFA0 (0000ms, 32404ms total)
T29AC 8117:784 JLINK_ReadMemU32(0xE000E004, 0x0001 Items, ...) -- CPU_ReadMem(4 bytes @ 0xE000E004) - Data: 01 00 00 00  returns 1 (0001ms, 32405ms total)
T29AC 8117:785 JLINK_ReadMemU32(0xE000E004, 0x0001 Items, ...) -- CPU_ReadMem(4 bytes @ 0xE000E004) - Data: 01 00 00 00  returns 1 (0001ms, 32406ms total)
T29AC 8117:786 JLINK_WriteMemEx(0xE0001000, 0x001C Bytes, ..., Flags = 0x02000004) - Data: 01 00 00 00 00 00 00 00 00 00 00 00 00 00 00 00 ... -- CPU_WriteMem(28 bytes @ 0xE0001000)  returns 0x1C (0003ms, 32409ms total)
T29AC 8117:789 JLINK_Halt()  returns 0x00 (0000ms, 32409ms total)
T29AC 8117:789 JLINK_IsHalted()  returns TRUE (0000ms, 32409ms total)
T29AC 8117:792 JLINK_WriteMem(0x20000000, 0x0178 Bytes, ...) - Data: 00 BE 0A E0 0D 78 2D 06 68 40 08 24 40 00 00 D3 ... -- CPU_WriteMem(376 bytes @ 0x20000000)  returns 0x178 (0003ms, 32412ms total)
T29AC 8117:795 JLINK_WriteReg(R0, 0x00000000)  returns 0x00 (0000ms, 32412ms total)
T29AC 8117:795 JLINK_WriteReg(R1, 0x00B71B00)  returns 0x00 (0000ms, 32412ms total)
T29AC 8117:795 JLINK_WriteReg(R2, 0x00000001)  returns 0x00 (0000ms, 32412ms total)
T29AC 8117:795 JLINK_WriteReg(R3, 0x00000000)  returns 0x00 (0000ms, 32412ms total)
T29AC 8117:795 JLINK_WriteReg(R4, 0x00000000)  returns 0x00 (0000ms, 32412ms total)
T29AC 8117:795 JLINK_WriteReg(R5, 0x00000000)  returns 0x00 (0000ms, 32412ms total)
T29AC 8117:795 JLINK_WriteReg(R6, 0x00000000)  returns 0x00 (0000ms, 32412ms total)
T29AC 8117:795 JLINK_WriteReg(R7, 0x00000000)  returns 0x00 (0000ms, 32412ms total)
T29AC 8117:795 JLINK_WriteReg(R8, 0x00000000)  returns 0x00 (0000ms, 32412ms total)
T29AC 8117:795 JLINK_WriteReg(R9, 0x20000170)  returns 0x00 (0000ms, 32412ms total)
T29AC 8117:795 JLINK_WriteReg(R10, 0x00000000)  returns 0x00 (0000ms, 32412ms total)
T29AC 8117:795 JLINK_WriteReg(R11, 0x00000000)  returns 0x00 (0000ms, 32412ms total)
T29AC 8117:795 JLINK_WriteReg(R12, 0x00000000)  returns 0x00 (0000ms, 32412ms total)
T29AC 8117:795 JLINK_WriteReg(R13 (SP), 0x20001000)  returns 0x00 (0000ms, 32412ms total)
T29AC 8117:795 JLINK_WriteReg(R14, 0x20000001)  returns 0x00 (0000ms, 32412ms total)
T29AC 8117:795 JLINK_WriteReg(R15 (PC), 0x2000003C)  returns 0x00 (0000ms, 32412ms total)
T29AC 8117:795 JLINK_WriteReg(XPSR, 0x01000000)  returns 0x00 (0000ms, 32412ms total)
T29AC 8117:795 JLINK_WriteReg(MSP, 0x20001000)  returns 0x00 (0000ms, 32412ms total)
T29AC 8117:795 JLINK_WriteReg(PSP, 0x20001000)  returns 0x00 (0000ms, 32412ms total)
T29AC 8117:795 JLINK_WriteReg(CFBP, 0x00000000)  returns 0x00 (0000ms, 32412ms total)
T29AC 8117:795 JLINK_SetBPEx(Addr = 0x20000000, Type = 0xFFFFFFF2) -- CPU_ReadMem(2 bytes @ 0x20000000)  returns 0x00000001 (0001ms, 32413ms total)
T29AC 8117:796 JLINK_Go() -- CPU_WriteMem(2 bytes @ 0x20000000) -- CPU_ReadMem(4 bytes @ 0xE0001000) -- CPU_WriteMem(4 bytes @ 0xE0002008) -- CPU_WriteMem(4 bytes @ 0xE000200C) -- CPU_WriteMem(4 bytes @ 0xE0002010) -- CPU_WriteMem(4 bytes @ 0xE0002014) -- CPU_WriteMem(4 bytes @ 0xE0002018) -- CPU_WriteMem(4 bytes @ 0xE000201C) -- CPU_WriteMem(4 bytes @ 0xE0001004) (0007ms, 32420ms total)
T29AC 8117:803 JLINK_IsHalted() -- CPU_ReadMem(2 bytes @ 0x20000000)  returns TRUE (0003ms, 32423ms total)
T29AC 8117:806 JLINK_ReadReg(R15 (PC))  returns 0x20000000 (0000ms, 32420ms total)
T29AC 8117:806 JLINK_ClrBPEx(BPHandle = 0x00000001)  returns 0x00 (0000ms, 32420ms total)
T29AC 8117:806 JLINK_ReadReg(R0)  returns 0x00000000 (0000ms, 32420ms total)
T29AC 8117:806 JLINK_WriteReg(R0, 0x00000000)  returns 0x00 (0000ms, 32420ms total)
T29AC 8117:806 JLINK_WriteReg(R1, 0x00008000)  returns 0x00 (0000ms, 32420ms total)
T29AC 8117:806 JLINK_WriteReg(R2, 0x000000FF)  returns 0x00 (0000ms, 32420ms total)
T29AC 8117:806 JLINK_WriteReg(R3, 0x00000000)  returns 0x00 (0000ms, 32420ms total)
T29AC 8117:806 JLINK_WriteReg(R4, 0x00000000)  returns 0x00 (0000ms, 32420ms total)
T29AC 8117:806 JLINK_WriteReg(R5, 0x00000000)  returns 0x00 (0000ms, 32420ms total)
T29AC 8117:806 JLINK_WriteReg(R6, 0x00000000)  returns 0x00 (0000ms, 32420ms total)
T29AC 8117:806 JLINK_WriteReg(R7, 0x00000000)  returns 0x00 (0000ms, 32420ms total)
T29AC 8117:806 JLINK_WriteReg(R8, 0x00000000)  returns 0x00 (0000ms, 32420ms total)
T29AC 8117:806 JLINK_WriteReg(R9, 0x20000170)  returns 0x00 (0000ms, 32420ms total)
T29AC 8117:806 JLINK_WriteReg(R10, 0x00000000)  returns 0x00 (0000ms, 32420ms total)
T29AC 8117:806 JLINK_WriteReg(R11, 0x00000000)  returns 0x00 (0000ms, 32420ms total)
T29AC 8117:806 JLINK_WriteReg(R12, 0x00000000)  returns 0x00 (0000ms, 32420ms total)
T29AC 8117:806 JLINK_WriteReg(R13 (SP), 0x20001000)  returns 0x00 (0000ms, 32420ms total)
T29AC 8117:807 JLINK_WriteReg(R14, 0x20000001)  returns 0x00 (0000ms, 32421ms total)
T29AC 8117:807 JLINK_WriteReg(R15 (PC), 0x20000020)  returns 0x00 (0000ms, 32421ms total)
T29AC 8117:807 JLINK_WriteReg(XPSR, 0x01000000)  returns 0x00 (0000ms, 32421ms total)
T29AC 8117:807 JLINK_WriteReg(MSP, 0x20001000)  returns 0x00 (0000ms, 32421ms total)
T29AC 8117:807 JLINK_WriteReg(PSP, 0x20001000)  returns 0x00 (0000ms, 32421ms total)
T29AC 8117:807 JLINK_WriteReg(CFBP, 0x00000000)  returns 0x00 (0000ms, 32421ms total)
T29AC 8117:807 JLINK_SetBPEx(Addr = 0x20000000, Type = 0xFFFFFFF2)  returns 0x00000002 (0000ms, 32421ms total)
T29AC 8117:807 JLINK_Go() -- CPU_ReadMem(4 bytes @ 0xE0001000) (0004ms, 32425ms total)
T29AC 8117:811 JLINK_IsHalted() -- CPU_ReadMem(2 bytes @ 0x20000000)  returns TRUE (0003ms, 32428ms total)
T29AC 8117:814 JLINK_ReadReg(R15 (PC))  returns 0x20000000 (0000ms, 32425ms total)
T29AC 8117:814 JLINK_ClrBPEx(BPHandle = 0x00000002)  returns 0x00 (0000ms, 32425ms total)
T29AC 8117:814 JLINK_ReadReg(R0)  returns 0x00000001 (0000ms, 32425ms total)
T29AC 8117:814 JLINK_WriteReg(R0, 0x00000000)  returns 0x00 (0000ms, 32425ms total)
T29AC 8117:814 JLINK_WriteReg(R1, 0x00008000)  returns 0x00 (0000ms, 32425ms total)
T29AC 8117:814 JLINK_WriteReg(R2, 0x000000FF)  returns 0x00 (0000ms, 32425ms total)
T29AC 8117:814 JLINK_WriteReg(R3, 0x00000000)  returns 0x00 (0000ms, 32425ms total)
T29AC 8117:814 JLINK_WriteReg(R4, 0x00000000)  returns 0x00 (0000ms, 32425ms total)
T29AC 8117:814 JLINK_WriteReg(R5, 0x00000000)  returns 0x00 (0000ms, 32425ms total)
T29AC 8117:814 JLINK_WriteReg(R6, 0x00000000)  returns 0x00 (0000ms, 32425ms total)
T29AC 8117:814 JLINK_WriteReg(R7, 0x00000000)  returns 0x00 (0000ms, 32425ms total)
T29AC 8117:814 JLINK_WriteReg(R8, 0x00000000)  returns 0x00 (0000ms, 32425ms total)
T29AC 8117:814 JLINK_WriteReg(R9, 0x20000170)  returns 0x00 (0000ms, 32425ms total)
T29AC 8117:814 JLINK_WriteReg(R10, 0x00000000)  returns 0x00 (0000ms, 32425ms total)
T29AC 8117:814 JLINK_WriteReg(R11, 0x00000000)  returns 0x00 (0000ms, 32425ms total)
T29AC 8117:814 JLINK_WriteReg(R12, 0x00000000)  returns 0x00 (0000ms, 32425ms total)
T29AC 8117:814 JLINK_WriteReg(R13 (SP), 0x20001000)  returns 0x00 (0000ms, 32425ms total)
T29AC 8117:814 JLINK_WriteReg(R14, 0x20000001)  returns 0x00 (0000ms, 32425ms total)
T29AC 8117:814 JLINK_WriteReg(R15 (PC), 0x200000A2)  returns 0x00 (0000ms, 32425ms total)
T29AC 8117:814 JLINK_WriteReg(XPSR, 0x01000000)  returns 0x00 (0000ms, 32425ms total)
T29AC 8117:814 JLINK_WriteReg(MSP, 0x20001000)  returns 0x00 (0000ms, 32425ms total)
T29AC 8117:814 JLINK_WriteReg(PSP, 0x20001000)  returns 0x00 (0000ms, 32425ms total)
T29AC 8117:814 JLINK_WriteReg(CFBP, 0x00000000)  returns 0x00 (0000ms, 32425ms total)
T29AC 8117:815 JLINK_SetBPEx(Addr = 0x20000000, Type = 0xFFFFFFF2)  returns 0x00000003 (0000ms, 32426ms total)
T29AC 8117:815 JLINK_Go() -- CPU_ReadMem(4 bytes @ 0xE0001000) (0004ms, 32430ms total)
T29AC 8117:819 JLINK_IsHalted()  returns FALSE (0000ms, 32430ms total)
T29AC 8117:878 JLINK_IsHalted()  returns FALSE (0001ms, 32431ms total)
T29AC 8117:881 JLINK_IsHalted()  returns FALSE (0001ms, 32431ms total)
T29AC 8117:884 JLINK_IsHalted()  returns FALSE (0001ms, 32431ms total)
T29AC 8117:887 JLINK_IsHalted()  returns FALSE (0001ms, 32431ms total)
T29AC 8117:892 JLINK_IsHalted()  returns FALSE (0001ms, 32431ms total)
T29AC 8117:895 JLINK_IsHalted()  returns FALSE (0001ms, 32431ms total)
T29AC 8117:898 JLINK_IsHalted()  returns FALSE (0001ms, 32431ms total)
T29AC 8117:901 JLINK_IsHalted()  returns FALSE (0000ms, 32430ms total)
T29AC 8117:903 JLINK_IsHalted()  returns FALSE (0000ms, 32430ms total)
T29AC 8117:908 JLINK_IsHalted()  returns FALSE (0001ms, 32431ms total)
T29AC 8117:910 JLINK_IsHalted()  returns FALSE (0001ms, 32431ms total)
T29AC 8117:913 JLINK_IsHalted()  returns FALSE (0001ms, 32431ms total)
T29AC 8117:915 JLINK_IsHalted()  returns FALSE (0001ms, 32432ms total)
T29AC 8117:918 JLINK_IsHalted() -- CPU_ReadMem(2 bytes @ 0x20000000)  returns TRUE (0004ms, 32435ms total)
T29AC 8117:922 JLINK_ReadReg(R15 (PC))  returns 0x20000000 (0000ms, 32431ms total)
T29AC 8117:922 JLINK_ClrBPEx(BPHandle = 0x00000003)  returns 0x00 (0000ms, 32431ms total)
T29AC 8117:922 JLINK_ReadReg(R0)  returns 0x00000000 (0000ms, 32431ms total)
T29AC 8117:923 JLINK_WriteReg(R0, 0x00008000)  returns 0x00 (0000ms, 32431ms total)
T29AC 8117:923 JLINK_WriteReg(R1, 0x00008000)  returns 0x00 (0000ms, 32431ms total)
T29AC 8117:923 JLINK_WriteReg(R2, 0x000000FF)  returns 0x00 (0000ms, 32431ms total)
T29AC 8117:923 JLINK_WriteReg(R3, 0x00000000)  returns 0x00 (0000ms, 32431ms total)
T29AC 8117:923 JLINK_WriteReg(R4, 0x00000000)  returns 0x00 (0000ms, 32431ms total)
T29AC 8117:923 JLINK_WriteReg(R5, 0x00000000)  returns 0x00 (0000ms, 32431ms total)
T29AC 8117:923 JLINK_WriteReg(R6, 0x00000000)  returns 0x00 (0000ms, 32431ms total)
T29AC 8117:923 JLINK_WriteReg(R7, 0x00000000)  returns 0x00 (0000ms, 32431ms total)
T29AC 8117:923 JLINK_WriteReg(R8, 0x00000000)  returns 0x00 (0000ms, 32431ms total)
T29AC 8117:923 JLINK_WriteReg(R9, 0x20000170)  returns 0x00 (0000ms, 32431ms total)
T29AC 8117:923 JLINK_WriteReg(R10, 0x00000000)  returns 0x00 (0000ms, 32431ms total)
T29AC 8117:923 JLINK_WriteReg(R11, 0x00000000)  returns 0x00 (0000ms, 32431ms total)
T29AC 8117:923 JLINK_WriteReg(R12, 0x00000000)  returns 0x00 (0000ms, 32431ms total)
T29AC 8117:923 JLINK_WriteReg(R13 (SP), 0x20001000)  returns 0x00 (0000ms, 32431ms total)
T29AC 8117:923 JLINK_WriteReg(R14, 0x20000001)  returns 0x00 (0000ms, 32431ms total)
T29AC 8117:923 JLINK_WriteReg(R15 (PC), 0x20000020)  returns 0x00 (0000ms, 32431ms total)
T29AC 8117:923 JLINK_WriteReg(XPSR, 0x01000000)  returns 0x00 (0000ms, 32431ms total)
T29AC 8117:923 JLINK_WriteReg(MSP, 0x20001000)  returns 0x00 (0000ms, 32431ms total)
T29AC 8117:923 JLINK_WriteReg(PSP, 0x20001000)  returns 0x00 (0000ms, 32431ms total)
T29AC 8117:924 JLINK_WriteReg(CFBP, 0x00000000)  returns 0x00 (0000ms, 32431ms total)
T29AC 8117:924 JLINK_SetBPEx(Addr = 0x20000000, Type = 0xFFFFFFF2)  returns 0x00000004 (0000ms, 32431ms total)
T29AC 8117:924 JLINK_Go() -- CPU_ReadMem(4 bytes @ 0xE0001000) (0006ms, 32437ms total)
T29AC 8117:930 JLINK_IsHalted() -- CPU_ReadMem(2 bytes @ 0x20000000)  returns TRUE (0003ms, 32440ms total)
T29AC 8117:933 JLINK_ReadReg(R15 (PC))  returns 0x20000000 (0000ms, 32437ms total)
T29AC 8117:933 JLINK_ClrBPEx(BPHandle = 0x00000004)  returns 0x00 (0000ms, 32437ms total)
T29AC 8117:933 JLINK_ReadReg(R0)  returns 0x00000001 (0000ms, 32437ms total)
T29AC 8117:933 JLINK_WriteReg(R0, 0x00008000)  returns 0x00 (0000ms, 32437ms total)
T29AC 8117:933 JLINK_WriteReg(R1, 0x00008000)  returns 0x00 (0000ms, 32437ms total)
T29AC 8117:933 JLINK_WriteReg(R2, 0x000000FF)  returns 0x00 (0000ms, 32437ms total)
T29AC 8117:933 JLINK_WriteReg(R3, 0x00000000)  returns 0x00 (0000ms, 32437ms total)
T29AC 8117:933 JLINK_WriteReg(R4, 0x00000000)  returns 0x00 (0000ms, 32437ms total)
T29AC 8117:933 JLINK_WriteReg(R5, 0x00000000)  returns 0x00 (0000ms, 32437ms total)
T29AC 8117:933 JLINK_WriteReg(R6, 0x00000000)  returns 0x00 (0000ms, 32437ms total)
T29AC 8117:933 JLINK_WriteReg(R7, 0x00000000)  returns 0x00 (0000ms, 32437ms total)
T29AC 8117:933 JLINK_WriteReg(R8, 0x00000000)  returns 0x00 (0000ms, 32437ms total)
T29AC 8117:933 JLINK_WriteReg(R9, 0x20000170)  returns 0x00 (0000ms, 32437ms total)
T29AC 8117:933 JLINK_WriteReg(R10, 0x00000000)  returns 0x00 (0000ms, 32437ms total)
T29AC 8117:933 JLINK_WriteReg(R11, 0x00000000)  returns 0x00 (0000ms, 32437ms total)
T29AC 8117:933 JLINK_WriteReg(R12, 0x00000000)  returns 0x00 (0000ms, 32437ms total)
T29AC 8117:933 JLINK_WriteReg(R13 (SP), 0x20001000)  returns 0x00 (0000ms, 32437ms total)
T29AC 8117:933 JLINK_WriteReg(R14, 0x20000001)  returns 0x00 (0000ms, 32437ms total)
T29AC 8117:933 JLINK_WriteReg(R15 (PC), 0x200000A2)  returns 0x00 (0000ms, 32437ms total)
T29AC 8117:933 JLINK_WriteReg(XPSR, 0x01000000)  returns 0x00 (0000ms, 32437ms total)
T29AC 8117:933 JLINK_WriteReg(MSP, 0x20001000)  returns 0x00 (0000ms, 32437ms total)
T29AC 8117:933 JLINK_WriteReg(PSP, 0x20001000)  returns 0x00 (0000ms, 32437ms total)
T29AC 8117:933 JLINK_WriteReg(CFBP, 0x00000000)  returns 0x00 (0001ms, 32438ms total)
T29AC 8117:934 JLINK_SetBPEx(Addr = 0x20000000, Type = 0xFFFFFFF2)  returns 0x00000005 (0000ms, 32438ms total)
T29AC 8117:934 JLINK_Go() -- CPU_ReadMem(4 bytes @ 0xE0001000) (0003ms, 32441ms total)
T29AC 8117:937 JLINK_IsHalted()  returns FALSE (0001ms, 32442ms total)
T29AC 8117:943 JLINK_IsHalted()  returns FALSE (0000ms, 32441ms total)
T29AC 8117:945 JLINK_IsHalted()  returns FALSE (0001ms, 32442ms total)
T29AC 8117:948 JLINK_IsHalted()  returns FALSE (0001ms, 32442ms total)
T29AC 8117:950 JLINK_IsHalted()  returns FALSE (0002ms, 32443ms total)
T29AC 8117:953 JLINK_IsHalted()  returns FALSE (0000ms, 32441ms total)
T29AC 8117:956 JLINK_IsHalted()  returns FALSE (0000ms, 32441ms total)
T29AC 8117:959 JLINK_IsHalted()  returns FALSE (0001ms, 32442ms total)
T29AC 8117:961 JLINK_IsHalted()  returns FALSE (0001ms, 32442ms total)
T29AC 8117:964 JLINK_IsHalted()  returns FALSE (0002ms, 32443ms total)
T29AC 8117:967 JLINK_IsHalted()  returns FALSE (0001ms, 32444ms total)
T29AC 8117:973 JLINK_IsHalted()  returns FALSE (0000ms, 32443ms total)
T29AC 8117:976 JLINK_IsHalted()  returns FALSE (0000ms, 32443ms total)
T29AC 8117:979 JLINK_IsHalted()  returns FALSE (0001ms, 32444ms total)
T29AC 8117:982 JLINK_IsHalted()  returns FALSE (0001ms, 32444ms total)
T29AC 8117:985 JLINK_IsHalted()  returns FALSE (0001ms, 32444ms total)
T29AC 8117:988 JLINK_IsHalted()  returns FALSE (0001ms, 32444ms total)
T29AC 8117:991 JLINK_IsHalted()  returns FALSE (0001ms, 32444ms total)
T29AC 8117:994 JLINK_IsHalted()  returns FALSE (0001ms, 32444ms total)
T29AC 8117:997 JLINK_IsHalted()  returns FALSE (0001ms, 32444ms total)
T29AC 8118:001 JLINK_IsHalted()  returns FALSE (0001ms, 32444ms total)
T29AC 8118:003 JLINK_IsHalted()  returns FALSE (0001ms, 32444ms total)
T29AC 8118:006 JLINK_IsHalted()  returns FALSE (0000ms, 32443ms total)
T29AC 8118:009 JLINK_IsHalted()  returns FALSE (0001ms, 32444ms total)
T29AC 8118:011 JLINK_IsHalted()  returns FALSE (0001ms, 32444ms total)
T29AC 8118:015 JLINK_IsHalted()  returns FALSE (0000ms, 32443ms total)
T29AC 8118:023 JLINK_IsHalted()  returns FALSE (0001ms, 32444ms total)
T29AC 8118:026 JLINK_IsHalted()  returns FALSE (0001ms, 32444ms total)
T29AC 8118:029 JLINK_IsHalted()  returns FALSE (0001ms, 32444ms total)
T29AC 8118:032 JLINK_IsHalted()  returns FALSE (0001ms, 32444ms total)
T29AC 8118:035 JLINK_IsHalted()  returns FALSE (0001ms, 32444ms total)
T29AC 8118:039 JLINK_IsHalted() -- CPU_ReadMem(2 bytes @ 0x20000000)  returns TRUE (0004ms, 32447ms total)
T29AC 8118:043 JLINK_ReadReg(R15 (PC))  returns 0x20000000 (0000ms, 32443ms total)
T29AC 8118:043 JLINK_ClrBPEx(BPHandle = 0x00000005)  returns 0x00 (0000ms, 32443ms total)
T29AC 8118:043 JLINK_ReadReg(R0)  returns 0x00000000 (0000ms, 32443ms total)
T29AC 8118:046 JLINK_WriteReg(R0, 0x00010000)  returns 0x00 (0000ms, 32443ms total)
T29AC 8118:046 JLINK_WriteReg(R1, 0x00008000)  returns 0x00 (0000ms, 32443ms total)
T29AC 8118:046 JLINK_WriteReg(R2, 0x000000FF)  returns 0x00 (0000ms, 32443ms total)
T29AC 8118:046 JLINK_WriteReg(R3, 0x00000000)  returns 0x00 (0000ms, 32443ms total)
T29AC 8118:046 JLINK_WriteReg(R4, 0x00000000)  returns 0x00 (0000ms, 32443ms total)
T29AC 8118:046 JLINK_WriteReg(R5, 0x00000000)  returns 0x00 (0000ms, 32443ms total)
T29AC 8118:046 JLINK_WriteReg(R6, 0x00000000)  returns 0x00 (0000ms, 32443ms total)
T29AC 8118:046 JLINK_WriteReg(R7, 0x00000000)  returns 0x00 (0000ms, 32443ms total)
T29AC 8118:046 JLINK_WriteReg(R8, 0x00000000)  returns 0x00 (0000ms, 32443ms total)
T29AC 8118:046 JLINK_WriteReg(R9, 0x20000170)  returns 0x00 (0000ms, 32443ms total)
T29AC 8118:046 JLINK_WriteReg(R10, 0x00000000)  returns 0x00 (0000ms, 32443ms total)
T29AC 8118:046 JLINK_WriteReg(R11, 0x00000000)  returns 0x00 (0000ms, 32443ms total)
T29AC 8118:046 JLINK_WriteReg(R12, 0x00000000)  returns 0x00 (0000ms, 32443ms total)
T29AC 8118:047 JLINK_WriteReg(R13 (SP), 0x20001000)  returns 0x00 (0000ms, 32444ms total)
T29AC 8118:047 JLINK_WriteReg(R14, 0x20000001)  returns 0x00 (0000ms, 32444ms total)
T29AC 8118:047 JLINK_WriteReg(R15 (PC), 0x20000020)  returns 0x00 (0000ms, 32444ms total)
T29AC 8118:047 JLINK_WriteReg(XPSR, 0x01000000)  returns 0x00 (0000ms, 32444ms total)
T29AC 8118:047 JLINK_WriteReg(MSP, 0x20001000)  returns 0x00 (0000ms, 32444ms total)
T29AC 8118:047 JLINK_WriteReg(PSP, 0x20001000)  returns 0x00 (0000ms, 32444ms total)
T29AC 8118:047 JLINK_WriteReg(CFBP, 0x00000000)  returns 0x00 (0000ms, 32444ms total)
T29AC 8118:047 JLINK_SetBPEx(Addr = 0x20000000, Type = 0xFFFFFFF2)  returns 0x00000006 (0000ms, 32444ms total)
T29AC 8118:047 JLINK_Go() -- CPU_ReadMem(4 bytes @ 0xE0001000) (0006ms, 32450ms total)
T29AC 8118:053 JLINK_IsHalted() -- CPU_ReadMem(2 bytes @ 0x20000000)  returns TRUE (0004ms, 32454ms total)
T29AC 8118:057 JLINK_ReadReg(R15 (PC))  returns 0x20000000 (0000ms, 32450ms total)
T29AC 8118:057 JLINK_ClrBPEx(BPHandle = 0x00000006)  returns 0x00 (0000ms, 32450ms total)
T29AC 8118:057 JLINK_ReadReg(R0)  returns 0x00000001 (0000ms, 32450ms total)
T29AC 8118:057 JLINK_WriteReg(R0, 0x00010000)  returns 0x00 (0000ms, 32450ms total)
T29AC 8118:057 JLINK_WriteReg(R1, 0x00008000)  returns 0x00 (0000ms, 32450ms total)
T29AC 8118:057 JLINK_WriteReg(R2, 0x000000FF)  returns 0x00 (0000ms, 32450ms total)
T29AC 8118:057 JLINK_WriteReg(R3, 0x00000000)  returns 0x00 (0000ms, 32450ms total)
T29AC 8118:057 JLINK_WriteReg(R4, 0x00000000)  returns 0x00 (0000ms, 32450ms total)
T29AC 8118:057 JLINK_WriteReg(R5, 0x00000000)  returns 0x00 (0000ms, 32450ms total)
T29AC 8118:057 JLINK_WriteReg(R6, 0x00000000)  returns 0x00 (0000ms, 32450ms total)
T29AC 8118:057 JLINK_WriteReg(R7, 0x00000000)  returns 0x00 (0000ms, 32450ms total)
T29AC 8118:057 JLINK_WriteReg(R8, 0x00000000)  returns 0x00 (0000ms, 32450ms total)
T29AC 8118:057 JLINK_WriteReg(R9, 0x20000170)  returns 0x00 (0001ms, 32451ms total)
T29AC 8118:058 JLINK_WriteReg(R10, 0x00000000)  returns 0x00 (0000ms, 32451ms total)
T29AC 8118:058 JLINK_WriteReg(R11, 0x00000000)  returns 0x00 (0000ms, 32451ms total)
T29AC 8118:058 JLINK_WriteReg(R12, 0x00000000)  returns 0x00 (0000ms, 32451ms total)
T29AC 8118:058 JLINK_WriteReg(R13 (SP), 0x20001000)  returns 0x00 (0000ms, 32451ms total)
T29AC 8118:058 JLINK_WriteReg(R14, 0x20000001)  returns 0x00 (0000ms, 32451ms total)
T29AC 8118:058 JLINK_WriteReg(R15 (PC), 0x200000A2)  returns 0x00 (0000ms, 32451ms total)
T29AC 8118:058 JLINK_WriteReg(XPSR, 0x01000000)  returns 0x00 (0000ms, 32451ms total)
T29AC 8118:058 JLINK_WriteReg(MSP, 0x20001000)  returns 0x00 (0000ms, 32451ms total)
T29AC 8118:058 JLINK_WriteReg(PSP, 0x20001000)  returns 0x00 (0000ms, 32451ms total)
T29AC 8118:058 JLINK_WriteReg(CFBP, 0x00000000)  returns 0x00 (0000ms, 32451ms total)
T29AC 8118:058 JLINK_SetBPEx(Addr = 0x20000000, Type = 0xFFFFFFF2)  returns 0x00000007 (0000ms, 32451ms total)
T29AC 8118:058 JLINK_Go() -- CPU_ReadMem(4 bytes @ 0xE0001000) (0005ms, 32456ms total)
T29AC 8118:063 JLINK_IsHalted()  returns FALSE (0001ms, 32457ms total)
T29AC 8118:066 JLINK_IsHalted()  returns FALSE (0001ms, 32457ms total)
T29AC 8118:070 JLINK_IsHalted()  returns FALSE (0001ms, 32457ms total)
T29AC 8118:072 JLINK_IsHalted()  returns FALSE (0001ms, 32457ms total)
T29AC 8118:075 JLINK_IsHalted()  returns FALSE (0000ms, 32456ms total)
T29AC 8118:077 JLINK_IsHalted()  returns FALSE (0002ms, 32458ms total)
T29AC 8118:081 JLINK_IsHalted()  returns FALSE (0001ms, 32457ms total)
T29AC 8118:083 JLINK_IsHalted()  returns FALSE (0001ms, 32457ms total)
T29AC 8118:086 JLINK_IsHalted()  returns FALSE (0001ms, 32457ms total)
T29AC 8118:089 JLINK_IsHalted()  returns FALSE (0001ms, 32457ms total)
T29AC 8118:092 JLINK_IsHalted()  returns FALSE (0001ms, 32457ms total)
T29AC 8118:095 JLINK_IsHalted()  returns FALSE (0001ms, 32457ms total)
T29AC 8118:098 JLINK_IsHalted()  returns FALSE (0000ms, 32457ms total)
T29AC 8118:101 JLINK_IsHalted()  returns FALSE (0000ms, 32457ms total)
T29AC 8118:103 JLINK_IsHalted()  returns FALSE (0000ms, 32457ms total)
T29AC 8118:105 JLINK_IsHalted()  returns FALSE (0000ms, 32457ms total)
T29AC 8118:109 JLINK_IsHalted()  returns FALSE (0000ms, 32457ms total)
T29AC 8118:111 JLINK_IsHalted()  returns FALSE (0001ms, 32458ms total)
T29AC 8118:114 JLINK_IsHalted()  returns FALSE (0002ms, 32459ms total)
T29AC 8118:118 JLINK_IsHalted()  returns FALSE (0001ms, 32458ms total)
T29AC 8118:121 JLINK_IsHalted()  returns FALSE (0001ms, 32458ms total)
T29AC 8118:124 JLINK_IsHalted()  returns FALSE (0001ms, 32458ms total)
T29AC 8118:134 JLINK_IsHalted()  returns FALSE (0000ms, 32457ms total)
T29AC 8118:136 JLINK_IsHalted()  returns FALSE (0001ms, 32458ms total)
T29AC 8118:139 JLINK_IsHalted()  returns FALSE (0001ms, 32458ms total)
T29AC 8118:142 JLINK_IsHalted()  returns FALSE (0000ms, 32457ms total)
T29AC 8118:145 JLINK_IsHalted()  returns FALSE (0001ms, 32458ms total)
T29AC 8118:148 JLINK_IsHalted()  returns FALSE (0001ms, 32458ms total)
T29AC 8118:151 JLINK_IsHalted()  returns FALSE (0001ms, 32458ms total)
T29AC 8118:154 JLINK_IsHalted()  returns FALSE (0001ms, 32458ms total)
T29AC 8118:158 JLINK_IsHalted()  returns FALSE (0001ms, 32458ms total)
T29AC 8118:160 JLINK_IsHalted()  returns FALSE (0001ms, 32458ms total)
T29AC 8118:164 JLINK_IsHalted() -- CPU_ReadMem(2 bytes @ 0x20000000)  returns TRUE (0003ms, 32460ms total)
T29AC 8118:167 JLINK_ReadReg(R15 (PC))  returns 0x20000000 (0001ms, 32458ms total)
T29AC 8118:168 JLINK_ClrBPEx(BPHandle = 0x00000007)  returns 0x00 (0000ms, 32458ms total)
T29AC 8118:168 JLINK_ReadReg(R0)  returns 0x00000000 (0000ms, 32458ms total)
T29AC 8118:170 JLINK_WriteReg(R0, 0x00018000)  returns 0x00 (0000ms, 32458ms total)
T29AC 8118:170 JLINK_WriteReg(R1, 0x00008000)  returns 0x00 (0000ms, 32458ms total)
T29AC 8118:170 JLINK_WriteReg(R2, 0x000000FF)  returns 0x00 (0000ms, 32458ms total)
T29AC 8118:170 JLINK_WriteReg(R3, 0x00000000)  returns 0x00 (0000ms, 32458ms total)
T29AC 8118:170 JLINK_WriteReg(R4, 0x00000000)  returns 0x00 (0001ms, 32459ms total)
T29AC 8118:171 JLINK_WriteReg(R5, 0x00000000)  returns 0x00 (0000ms, 32459ms total)
T29AC 8118:171 JLINK_WriteReg(R6, 0x00000000)  returns 0x00 (0000ms, 32459ms total)
T29AC 8118:171 JLINK_WriteReg(R7, 0x00000000)  returns 0x00 (0000ms, 32459ms total)
T29AC 8118:171 JLINK_WriteReg(R8, 0x00000000)  returns 0x00 (0000ms, 32459ms total)
T29AC 8118:171 JLINK_WriteReg(R9, 0x20000170)  returns 0x00 (0000ms, 32459ms total)
T29AC 8118:171 JLINK_WriteReg(R10, 0x00000000)  returns 0x00 (0000ms, 32459ms total)
T29AC 8118:171 JLINK_WriteReg(R11, 0x00000000)  returns 0x00 (0000ms, 32459ms total)
T29AC 8118:171 JLINK_WriteReg(R12, 0x00000000)  returns 0x00 (0000ms, 32459ms total)
T29AC 8118:171 JLINK_WriteReg(R13 (SP), 0x20001000)  returns 0x00 (0000ms, 32459ms total)
T29AC 8118:172 JLINK_WriteReg(R14, 0x20000001)  returns 0x00 (0000ms, 32459ms total)
T29AC 8118:172 JLINK_WriteReg(R15 (PC), 0x20000020)  returns 0x00 (0000ms, 32459ms total)
T29AC 8118:172 JLINK_WriteReg(XPSR, 0x01000000)  returns 0x00 (0000ms, 32459ms total)
T29AC 8118:172 JLINK_WriteReg(MSP, 0x20001000)  returns 0x00 (0000ms, 32459ms total)
T29AC 8118:172 JLINK_WriteReg(PSP, 0x20001000)  returns 0x00 (0000ms, 32459ms total)
T29AC 8118:172 JLINK_WriteReg(CFBP, 0x00000000)  returns 0x00 (0000ms, 32459ms total)
T29AC 8118:172 JLINK_SetBPEx(Addr = 0x20000000, Type = 0xFFFFFFF2)  returns 0x00000008 (0000ms, 32459ms total)
T29AC 8118:172 JLINK_Go() -- CPU_ReadMem(4 bytes @ 0xE0001000) (0006ms, 32465ms total)
T29AC 8118:178 JLINK_IsHalted() -- CPU_ReadMem(2 bytes @ 0x20000000)  returns TRUE (0004ms, 32469ms total)
T29AC 8118:182 JLINK_ReadReg(R15 (PC))  returns 0x20000000 (0000ms, 32465ms total)
T29AC 8118:182 JLINK_ClrBPEx(BPHandle = 0x00000008)  returns 0x00 (0000ms, 32465ms total)
T29AC 8118:182 JLINK_ReadReg(R0)  returns 0x00000001 (0000ms, 32465ms total)
T29AC 8118:182 JLINK_WriteReg(R0, 0x00018000)  returns 0x00 (0000ms, 32465ms total)
T29AC 8118:182 JLINK_WriteReg(R1, 0x00008000)  returns 0x00 (0000ms, 32465ms total)
T29AC 8118:182 JLINK_WriteReg(R2, 0x000000FF)  returns 0x00 (0000ms, 32465ms total)
T29AC 8118:182 JLINK_WriteReg(R3, 0x00000000)  returns 0x00 (0001ms, 32466ms total)
T29AC 8118:183 JLINK_WriteReg(R4, 0x00000000)  returns 0x00 (0000ms, 32466ms total)
T29AC 8118:183 JLINK_WriteReg(R5, 0x00000000)  returns 0x00 (0000ms, 32466ms total)
T29AC 8118:183 JLINK_WriteReg(R6, 0x00000000)  returns 0x00 (0000ms, 32466ms total)
T29AC 8118:183 JLINK_WriteReg(R7, 0x00000000)  returns 0x00 (0000ms, 32466ms total)
T29AC 8118:183 JLINK_WriteReg(R8, 0x00000000)  returns 0x00 (0000ms, 32466ms total)
T29AC 8118:183 JLINK_WriteReg(R9, 0x20000170)  returns 0x00 (0000ms, 32466ms total)
T29AC 8118:183 JLINK_WriteReg(R10, 0x00000000)  returns 0x00 (0000ms, 32466ms total)
T29AC 8118:183 JLINK_WriteReg(R11, 0x00000000)  returns 0x00 (0000ms, 32466ms total)
T29AC 8118:183 JLINK_WriteReg(R12, 0x00000000)  returns 0x00 (0000ms, 32466ms total)
T29AC 8118:183 JLINK_WriteReg(R13 (SP), 0x20001000)  returns 0x00 (0001ms, 32467ms total)
T29AC 8118:184 JLINK_WriteReg(R14, 0x20000001)  returns 0x00 (0000ms, 32467ms total)
T29AC 8118:184 JLINK_WriteReg(R15 (PC), 0x200000A2)  returns 0x00 (0000ms, 32467ms total)
T29AC 8118:184 JLINK_WriteReg(XPSR, 0x01000000)  returns 0x00 (0000ms, 32467ms total)
T29AC 8118:184 JLINK_WriteReg(MSP, 0x20001000)  returns 0x00 (0000ms, 32467ms total)
T29AC 8118:184 JLINK_WriteReg(PSP, 0x20001000)  returns 0x00 (0000ms, 32467ms total)
T29AC 8118:184 JLINK_WriteReg(CFBP, 0x00000000)  returns 0x00 (0000ms, 32467ms total)
T29AC 8118:184 JLINK_SetBPEx(Addr = 0x20000000, Type = 0xFFFFFFF2)  returns 0x00000009 (0000ms, 32467ms total)
T29AC 8118:184 JLINK_Go() -- CPU_ReadMem(4 bytes @ 0xE0001000) (0005ms, 32472ms total)
T29AC 8118:189 JLINK_IsHalted()  returns FALSE (0002ms, 32474ms total)
T29AC 8118:194 JLINK_IsHalted()  returns FALSE (0001ms, 32473ms total)
T29AC 8118:196 JLINK_IsHalted()  returns FALSE (0001ms, 32473ms total)
T29AC 8118:199 JLINK_IsHalted()  returns FALSE (0001ms, 32473ms total)
T29AC 8118:202 JLINK_IsHalted()  returns FALSE (0001ms, 32473ms total)
T29AC 8118:205 JLINK_IsHalted()  returns FALSE (0001ms, 32473ms total)
T29AC 8118:209 JLINK_IsHalted()  returns FALSE (0000ms, 32472ms total)
T29AC 8118:212 JLINK_IsHalted()  returns FALSE (0000ms, 32472ms total)
T29AC 8118:214 JLINK_IsHalted()  returns FALSE (0001ms, 32473ms total)
T29AC 8118:217 JLINK_IsHalted()  returns FALSE (0001ms, 32473ms total)
T29AC 8118:233 JLINK_IsHalted()  returns FALSE (0001ms, 32473ms total)
T29AC 8118:242 JLINK_IsHalted()  returns FALSE (0002ms, 32474ms total)
T29AC 8118:245 JLINK_IsHalted()  returns FALSE (0001ms, 32473ms total)
T29AC 8118:248 JLINK_IsHalted()  returns FALSE (0001ms, 32473ms total)
T29AC 8118:250 JLINK_IsHalted()  returns FALSE (0001ms, 32473ms total)
T29AC 8118:253 JLINK_IsHalted()  returns FALSE (0001ms, 32473ms total)
T29AC 8118:256 JLINK_IsHalted()  returns FALSE (0001ms, 32473ms total)
T29AC 8118:259 JLINK_IsHalted()  returns FALSE (0001ms, 32473ms total)
T29AC 8118:261 JLINK_IsHalted()  returns FALSE (0001ms, 32473ms total)
T29AC 8118:264 JLINK_IsHalted()  returns FALSE (0001ms, 32473ms total)
T29AC 8118:266 JLINK_IsHalted()  returns FALSE (0001ms, 32473ms total)
T29AC 8118:269 JLINK_IsHalted()  returns FALSE (0002ms, 32474ms total)
T29AC 8118:272 JLINK_IsHalted()  returns FALSE (0001ms, 32473ms total)
T29AC 8118:275 JLINK_IsHalted()  returns FALSE (0001ms, 32473ms total)
T29AC 8118:279 JLINK_IsHalted()  returns FALSE (0001ms, 32473ms total)
T29AC 8118:281 JLINK_IsHalted()  returns FALSE (0001ms, 32473ms total)
T29AC 8118:284 JLINK_IsHalted()  returns FALSE (0001ms, 32473ms total)
T29AC 8118:287 JLINK_IsHalted()  returns FALSE (0001ms, 32473ms total)
T29AC 8118:291 JLINK_IsHalted() -- CPU_ReadMem(2 bytes @ 0x20000000)  returns TRUE (0005ms, 32477ms total)
T29AC 8118:296 JLINK_ReadReg(R15 (PC))  returns 0x20000000 (0000ms, 32472ms total)
T29AC 8118:296 JLINK_ClrBPEx(BPHandle = 0x00000009)  returns 0x00 (0000ms, 32472ms total)
T29AC 8118:296 JLINK_ReadReg(R0)  returns 0x00000000 (0000ms, 32472ms total)
T29AC 8118:296 JLINK_WriteReg(R0, 0x00000001)  returns 0x00 (0000ms, 32472ms total)
T29AC 8118:296 JLINK_WriteReg(R1, 0x00008000)  returns 0x00 (0001ms, 32473ms total)
T29AC 8118:297 JLINK_WriteReg(R2, 0x000000FF)  returns 0x00 (0000ms, 32473ms total)
T29AC 8118:297 JLINK_WriteReg(R3, 0x00000000)  returns 0x00 (0000ms, 32473ms total)
T29AC 8118:297 JLINK_WriteReg(R4, 0x00000000)  returns 0x00 (0000ms, 32473ms total)
T29AC 8118:297 JLINK_WriteReg(R5, 0x00000000)  returns 0x00 (0000ms, 32473ms total)
T29AC 8118:297 JLINK_WriteReg(R6, 0x00000000)  returns 0x00 (0000ms, 32473ms total)
T29AC 8118:297 JLINK_WriteReg(R7, 0x00000000)  returns 0x00 (0000ms, 32473ms total)
T29AC 8118:297 JLINK_WriteReg(R8, 0x00000000)  returns 0x00 (0000ms, 32473ms total)
T29AC 8118:297 JLINK_WriteReg(R9, 0x20000170)  returns 0x00 (0000ms, 32473ms total)
T29AC 8118:297 JLINK_WriteReg(R10, 0x00000000)  returns 0x00 (0000ms, 32473ms total)
T29AC 8118:297 JLINK_WriteReg(R11, 0x00000000)  returns 0x00 (0000ms, 32473ms total)
T29AC 8118:297 JLINK_WriteReg(R12, 0x00000000)  returns 0x00 (0000ms, 32473ms total)
T29AC 8118:297 JLINK_WriteReg(R13 (SP), 0x20001000)  returns 0x00 (0000ms, 32473ms total)
T29AC 8118:297 JLINK_WriteReg(R14, 0x20000001)  returns 0x00 (0000ms, 32473ms total)
T29AC 8118:297 JLINK_WriteReg(R15 (PC), 0x2000005A)  returns 0x00 (0000ms, 32473ms total)
T29AC 8118:297 JLINK_WriteReg(XPSR, 0x01000000)  returns 0x00 (0000ms, 32473ms total)
T29AC 8118:297 JLINK_WriteReg(MSP, 0x20001000)  returns 0x00 (0000ms, 32473ms total)
T29AC 8118:297 JLINK_WriteReg(PSP, 0x20001000)  returns 0x00 (0000ms, 32473ms total)
T29AC 8118:297 JLINK_WriteReg(CFBP, 0x00000000)  returns 0x00 (0000ms, 32473ms total)
T29AC 8118:298 JLINK_SetBPEx(Addr = 0x20000000, Type = 0xFFFFFFF2)  returns 0x0000000A (0000ms, 32473ms total)
T29AC 8118:298 JLINK_Go() -- CPU_ReadMem(4 bytes @ 0xE0001000) (0005ms, 32478ms total)
T29AC 8118:303 JLINK_IsHalted() -- CPU_ReadMem(2 bytes @ 0x20000000)  returns TRUE (0005ms, 32483ms total)
T29AC 8118:308 JLINK_ReadReg(R15 (PC))  returns 0x20000000 (0000ms, 32478ms total)
T29AC 8118:308 JLINK_ClrBPEx(BPHandle = 0x0000000A)  returns 0x00 (0000ms, 32478ms total)
T29AC 8118:308 JLINK_ReadReg(R0)  returns 0x00000000 (0000ms, 32478ms total)
T29AC 8118:386 JLINK_WriteMem(0x20000000, 0x0178 Bytes, ...) - Data: 00 BE 0A E0 0D 78 2D 06 68 40 08 24 40 00 00 D3 ... -- CPU_WriteMem(376 bytes @ 0x20000000)  returns 0x178 (0002ms, 32480ms total)
T29AC 8118:388 JLINK_WriteReg(R0, 0x00000000)  returns 0x00 (0000ms, 32480ms total)
T29AC 8118:388 JLINK_WriteReg(R1, 0x00B71B00)  returns 0x00 (0001ms, 32481ms total)
T29AC 8118:389 JLINK_WriteReg(R2, 0x00000002)  returns 0x00 (0000ms, 32481ms total)
T29AC 8118:389 JLINK_WriteReg(R3, 0x00000000)  returns 0x00 (0000ms, 32481ms total)
T29AC 8118:389 JLINK_WriteReg(R4, 0x00000000)  returns 0x00 (0000ms, 32481ms total)
T29AC 8118:389 JLINK_WriteReg(R5, 0x00000000)  returns 0x00 (0000ms, 32481ms total)
T29AC 8118:389 JLINK_WriteReg(R6, 0x00000000)  returns 0x00 (0000ms, 32481ms total)
T29AC 8118:389 JLINK_WriteReg(R7, 0x00000000)  returns 0x00 (0000ms, 32481ms total)
T29AC 8118:389 JLINK_WriteReg(R8, 0x00000000)  returns 0x00 (0000ms, 32481ms total)
T29AC 8118:389 JLINK_WriteReg(R9, 0x20000170)  returns 0x00 (0000ms, 32481ms total)
T29AC 8118:389 JLINK_WriteReg(R10, 0x00000000)  returns 0x00 (0000ms, 32481ms total)
T29AC 8118:390 JLINK_WriteReg(R11, 0x00000000)  returns 0x00 (0000ms, 32482ms total)
T29AC 8118:390 JLINK_WriteReg(R12, 0x00000000)  returns 0x00 (0000ms, 32482ms total)
T29AC 8118:390 JLINK_WriteReg(R13 (SP), 0x20001000)  returns 0x00 (0000ms, 32482ms total)
T29AC 8118:390 JLINK_WriteReg(R14, 0x20000001)  returns 0x00 (0000ms, 32482ms total)
T29AC 8118:390 JLINK_WriteReg(R15 (PC), 0x2000003C)  returns 0x00 (0000ms, 32482ms total)
T29AC 8118:390 JLINK_WriteReg(XPSR, 0x01000000)  returns 0x00 (0000ms, 32482ms total)
T29AC 8118:390 JLINK_WriteReg(MSP, 0x20001000)  returns 0x00 (0000ms, 32482ms total)
T29AC 8118:390 JLINK_WriteReg(PSP, 0x20001000)  returns 0x00 (0000ms, 32482ms total)
T29AC 8118:390 JLINK_WriteReg(CFBP, 0x00000000)  returns 0x00 (0000ms, 32482ms total)
T29AC 8118:390 JLINK_SetBPEx(Addr = 0x20000000, Type = 0xFFFFFFF2) -- CPU_ReadMem(2 bytes @ 0x20000000)  returns 0x0000000B (0001ms, 32483ms total)
T29AC 8118:391 JLINK_Go() -- CPU_WriteMem(2 bytes @ 0x20000000) -- CPU_ReadMem(4 bytes @ 0xE0001000) (0006ms, 32489ms total)
T29AC 8118:397 JLINK_IsHalted() -- CPU_ReadMem(2 bytes @ 0x20000000)  returns TRUE (0004ms, 32493ms total)
T29AC 8118:401 JLINK_ReadReg(R15 (PC))  returns 0x20000000 (0000ms, 32489ms total)
T29AC 8118:401 JLINK_ClrBPEx(BPHandle = 0x0000000B)  returns 0x00 (0000ms, 32489ms total)
T29AC 8118:401 JLINK_ReadReg(R0)  returns 0x00000000 (0001ms, 32490ms total)
T29AC 8118:402 JLINK_WriteMem(0x200001A0, 0x0260 Bytes, ...) - Data: 00 80 02 20 D5 04 00 00 E3 04 00 00 E5 04 00 00 ... -- CPU_WriteMem(608 bytes @ 0x200001A0)  returns 0x260 (0004ms, 32494ms total)
T29AC 8118:406 JLINK_WriteMem(0x20000400, 0x01A0 Bytes, ...) - Data: 00 00 00 00 00 00 00 00 00 00 00 00 00 00 00 00 ... -- CPU_WriteMem(416 bytes @ 0x20000400)  returns 0x1A0 (0003ms, 32497ms total)
T29AC 8118:409 JLINK_WriteReg(R0, 0x00000000)  returns 0x00 (0000ms, 32497ms total)
T29AC 8118:409 JLINK_WriteReg(R1, 0x00000400)  returns 0x00 (0000ms, 32497ms total)
T29AC 8118:409 JLINK_WriteReg(R2, 0x200001A0)  returns 0x00 (0000ms, 32497ms total)
T29AC 8118:409 JLINK_WriteReg(R3, 0x00000000)  returns 0x00 (0000ms, 32497ms total)
T29AC 8118:409 JLINK_WriteReg(R4, 0x00000000)  returns 0x00 (0000ms, 32497ms total)
T29AC 8118:409 JLINK_WriteReg(R5, 0x00000000)  returns 0x00 (0000ms, 32497ms total)
T29AC 8118:409 JLINK_WriteReg(R6, 0x00000000)  returns 0x00 (0000ms, 32497ms total)
T29AC 8118:409 JLINK_WriteReg(R7, 0x00000000)  returns 0x00 (0000ms, 32497ms total)
T29AC 8118:409 JLINK_WriteReg(R8, 0x00000000)  returns 0x00 (0000ms, 32497ms total)
T29AC 8118:409 JLINK_WriteReg(R9, 0x20000170)  returns 0x00 (0000ms, 32497ms total)
T29AC 8118:409 JLINK_WriteReg(R10, 0x00000000)  returns 0x00 (0000ms, 32497ms total)
T29AC 8118:409 JLINK_WriteReg(R11, 0x00000000)  returns 0x00 (0000ms, 32497ms total)
T29AC 8118:409 JLINK_WriteReg(R12, 0x00000000)  returns 0x00 (0000ms, 32497ms total)
T29AC 8118:409 JLINK_WriteReg(R13 (SP), 0x20001000)  returns 0x00 (0000ms, 32497ms total)
T29AC 8118:409 JLINK_WriteReg(R14, 0x20000001)  returns 0x00 (0000ms, 32497ms total)
T29AC 8118:409 JLINK_WriteReg(R15 (PC), 0x200000E8)  returns 0x00 (0000ms, 32497ms total)
T29AC 8118:410 JLINK_WriteReg(XPSR, 0x01000000)  returns 0x00 (0000ms, 32497ms total)
T29AC 8118:410 JLINK_WriteReg(MSP, 0x20001000)  returns 0x00 (0000ms, 32497ms total)
T29AC 8118:410 JLINK_WriteReg(PSP, 0x20001000)  returns 0x00 (0000ms, 32497ms total)
T29AC 8118:410 JLINK_WriteReg(CFBP, 0x00000000)  returns 0x00 (0000ms, 32497ms total)
T29AC 8118:410 JLINK_SetBPEx(Addr = 0x20000000, Type = 0xFFFFFFF2)  returns 0x0000000C (0000ms, 32497ms total)
T29AC 8118:410 JLINK_Go() -- CPU_ReadMem(4 bytes @ 0xE0001000) (0005ms, 32502ms total)
T29AC 8118:415 JLINK_IsHalted()  returns FALSE (0001ms, 32503ms total)
T29AC 8118:430 JLINK_IsHalted() -- CPU_ReadMem(2 bytes @ 0x20000000)  returns TRUE (0005ms, 32507ms total)
T29AC 8118:435 JLINK_ReadReg(R15 (PC))  returns 0x20000000 (0000ms, 32502ms total)
T29AC 8118:435 JLINK_ClrBPEx(BPHandle = 0x0000000C)  returns 0x00 (0000ms, 32502ms total)
T29AC 8118:435 JLINK_ReadReg(R0)  returns 0x00000000 (0000ms, 32502ms total)
T29AC 8118:436 JLINK_WriteMem(0x200001A0, 0x0260 Bytes, ...) - Data: DF F8 0C D0 00 F0 4A FA 00 48 00 47 E5 69 01 00 ... -- CPU_WriteMem(608 bytes @ 0x200001A0)  returns 0x260 (0003ms, 32505ms total)
T29AC 8118:439 JLINK_WriteMem(0x20000400, 0x01A0 Bytes, ...) - Data: D9 05 00 00 D9 05 00 00 D9 05 00 00 D9 05 00 00 ... -- CPU_WriteMem(416 bytes @ 0x20000400)  returns 0x1A0 (0002ms, 32507ms total)
T29AC 8118:441 JLINK_WriteReg(R0, 0x00000400)  returns 0x00 (0000ms, 32507ms total)
T29AC 8118:441 JLINK_WriteReg(R1, 0x00000400)  returns 0x00 (0000ms, 32507ms total)
T29AC 8118:441 JLINK_WriteReg(R2, 0x200001A0)  returns 0x00 (0000ms, 32507ms total)
T29AC 8118:441 JLINK_WriteReg(R3, 0x00000000)  returns 0x00 (0000ms, 32507ms total)
T29AC 8118:441 JLINK_WriteReg(R4, 0x00000000)  returns 0x00 (0001ms, 32508ms total)
T29AC 8118:442 JLINK_WriteReg(R5, 0x00000000)  returns 0x00 (0000ms, 32508ms total)
T29AC 8118:442 JLINK_WriteReg(R6, 0x00000000)  returns 0x00 (0000ms, 32508ms total)
T29AC 8118:442 JLINK_WriteReg(R7, 0x00000000)  returns 0x00 (0000ms, 32508ms total)
T29AC 8118:442 JLINK_WriteReg(R8, 0x00000000)  returns 0x00 (0000ms, 32508ms total)
T29AC 8118:442 JLINK_WriteReg(R9, 0x20000170)  returns 0x00 (0000ms, 32508ms total)
T29AC 8118:442 JLINK_WriteReg(R10, 0x00000000)  returns 0x00 (0000ms, 32508ms total)
T29AC 8118:442 JLINK_WriteReg(R11, 0x00000000)  returns 0x00 (0000ms, 32508ms total)
T29AC 8118:442 JLINK_WriteReg(R12, 0x00000000)  returns 0x00 (0000ms, 32508ms total)
T29AC 8118:442 JLINK_WriteReg(R13 (SP), 0x20001000)  returns 0x00 (0000ms, 32508ms total)
T29AC 8118:442 JLINK_WriteReg(R14, 0x20000001)  returns 0x00 (0000ms, 32508ms total)
T29AC 8118:442 JLINK_WriteReg(R15 (PC), 0x200000E8)  returns 0x00 (0000ms, 32508ms total)
T29AC 8118:442 JLINK_WriteReg(XPSR, 0x01000000)  returns 0x00 (0000ms, 32508ms total)
T29AC 8118:442 JLINK_WriteReg(MSP, 0x20001000)  returns 0x00 (0000ms, 32508ms total)
T29AC 8118:442 JLINK_WriteReg(PSP, 0x20001000)  returns 0x00 (0000ms, 32508ms total)
T29AC 8118:442 JLINK_WriteReg(CFBP, 0x00000000)  returns 0x00 (0000ms, 32508ms total)
T29AC 8118:442 JLINK_SetBPEx(Addr = 0x20000000, Type = 0xFFFFFFF2)  returns 0x0000000D (0000ms, 32508ms total)
T29AC 8118:442 JLINK_Go() -- CPU_ReadMem(4 bytes @ 0xE0001000) (0005ms, 32513ms total)
T29AC 8118:447 JLINK_IsHalted()  returns FALSE (0001ms, 32514ms total)
T29AC 8118:457 JLINK_IsHalted() -- CPU_ReadMem(2 bytes @ 0x20000000)  returns TRUE (0004ms, 32517ms total)
T29AC 8118:461 JLINK_ReadReg(R15 (PC))  returns 0x20000000 (0000ms, 32513ms total)
T29AC 8118:461 JLINK_ClrBPEx(BPHandle = 0x0000000D)  returns 0x00 (0000ms, 32513ms total)
T29AC 8118:461 JLINK_ReadReg(R0)  returns 0x00000000 (0000ms, 32513ms total)
T29AC 8118:462 JLINK_WriteMem(0x200001A0, 0x0260 Bytes, ...) - Data: 80 1A 70 47 10 B5 00 22 00 E0 52 1C 83 5C 8C 5C ... -- CPU_WriteMem(608 bytes @ 0x200001A0)  returns 0x260 (0004ms, 32517ms total)
T29AC 8118:466 JLINK_WriteMem(0x20000400, 0x01A0 Bytes, ...) - Data: 00 20 01 F0 93 F9 04 46 04 B9 04 E0 38 22 04 A1 ... -- CPU_WriteMem(416 bytes @ 0x20000400)  returns 0x1A0 (0003ms, 32520ms total)
T29AC 8118:469 JLINK_WriteReg(R0, 0x00000800)  returns 0x00 (0000ms, 32520ms total)
T29AC 8118:469 JLINK_WriteReg(R1, 0x00000400)  returns 0x00 (0000ms, 32520ms total)
T29AC 8118:469 JLINK_WriteReg(R2, 0x200001A0)  returns 0x00 (0000ms, 32520ms total)
T29AC 8118:469 JLINK_WriteReg(R3, 0x00000000)  returns 0x00 (0000ms, 32520ms total)
T29AC 8118:469 JLINK_WriteReg(R4, 0x00000000)  returns 0x00 (0000ms, 32520ms total)
T29AC 8118:469 JLINK_WriteReg(R5, 0x00000000)  returns 0x00 (0000ms, 32520ms total)
T29AC 8118:469 JLINK_WriteReg(R6, 0x00000000)  returns 0x00 (0000ms, 32520ms total)
T29AC 8118:469 JLINK_WriteReg(R7, 0x00000000)  returns 0x00 (0000ms, 32520ms total)
T29AC 8118:469 JLINK_WriteReg(R8, 0x00000000)  returns 0x00 (0000ms, 32520ms total)
